# Version 1.00
#
freq[Hz];re:Trc1_S11;im:Trc1_S11;
1.000000000000000E+007;1.030980944633484E+000;-1.937868632376194E-002;
2.495000000000000E+007;9.999107122421265E-001;-1.271254122257233E-001;
3.990000000000000E+007;9.780794978141785E-001;-1.768905520439148E-001;
5.485000000000000E+007;9.606594443321228E-001;-2.544839680194855E-001;
6.980000000000000E+007;9.464138746261597E-001;-3.074695467948914E-001;
8.475000000000000E+007;8.690900206565857E-001;-3.919974267482758E-001;
9.970000000000000E+007;8.544661402702332E-001;-4.446189403533936E-001;
1.146500000000000E+008;8.437499403953552E-001;-4.617718160152435E-001;
1.296000000000000E+008;8.000125885009766E-001;-5.201040506362915E-001;
1.445500000000000E+008;7.576958537101746E-001;-6.163222789764404E-001;
1.595000000000000E+008;6.575981378555298E-001;-6.695387959480286E-001;
1.744500000000000E+008;5.868178606033325E-001;-6.507578492164612E-001;
1.894000000000000E+008;6.060619354248047E-001;-7.105848193168640E-001;
2.043500000000000E+008;5.083370804786682E-001;-7.939019799232483E-001;
2.193000000000000E+008;4.047331511974335E-001;-8.293602466583252E-001;
2.342500000000000E+008;2.798215150833130E-001;-8.118655085563660E-001;
2.492000000000000E+008;2.442249655723572E-001;-8.152378797531128E-001;
2.641500000000000E+008;1.258666813373566E-001;-8.346269726753235E-001;
2.791000000000000E+008;2.848936477676034E-003;-8.021855950355530E-001;
2.940500000000000E+008;-1.172752901911736E-001;-7.308403253555298E-001;
3.090000000000000E+008;-2.281438261270523E-001;-6.222745776176453E-001;
3.239500000000000E+008;-2.874119877815247E-001;-4.520209133625031E-001;
3.389000000000000E+008;-2.955479025840759E-001;-3.411161899566650E-001;
3.538500000000000E+008;-2.974776327610016E-001;-1.644172668457031E-001;
3.688000000000000E+008;-1.579031199216843E-001;1.756881922483444E-002;
3.837500000000000E+008;4.476075246930122E-002;4.149156436324120E-002;
3.987000000000000E+008;1.784322112798691E-001;2.167701721191406E-002;
4.136500000000000E+008;2.641827166080475E-001;-9.684267453849316E-003;
4.286000000000000E+008;3.644260466098785E-001;-7.761975377798080E-002;
4.435500000000000E+008;4.079323410987854E-001;-2.001956403255463E-001;
4.585000000000000E+008;4.147619903087616E-001;-2.831948697566986E-001;
4.734500000000000E+008;4.081846177577972E-001;-3.345840871334076E-001;
4.884000000000000E+008;4.076366722583771E-001;-4.039375782012940E-001;
5.033500000000000E+008;3.938973844051361E-001;-4.573940336704254E-001;
5.183000000000000E+008;3.577534854412079E-001;-5.187816619873047E-001;
5.332500000000000E+008;3.202412426471710E-001;-5.836606621742249E-001;
5.482000000000000E+008;2.597189247608185E-001;-6.011746525764465E-001;
5.631500000000000E+008;2.192012965679169E-001;-6.200712919235230E-001;
5.781000000000000E+008;1.970667690038681E-001;-6.396289467811585E-001;
5.930500000000000E+008;1.468274742364883E-001;-6.633775830268860E-001;
6.080000000000000E+008;9.022516757249832E-002;-6.758783459663391E-001;
6.229500000000000E+008;3.981537371873856E-002;-6.866968274116516E-001;
6.379000000000000E+008;-7.563647814095020E-003;-6.824832558631897E-001;
6.528500000000000E+008;-4.046358540654182E-002;-6.893337368965149E-001;
6.678000000000000E+008;-8.180623501539230E-002;-6.801556348800659E-001;
6.827500000000000E+008;-1.266656666994095E-001;-6.637500524520874E-001;
6.977000000000000E+008;-1.528599709272385E-001;-6.535813212394714E-001;
7.126500000000000E+008;-1.953611671924591E-001;-6.525709629058838E-001;
7.276000000000000E+008;-2.404708415269852E-001;-6.388940811157227E-001;
7.425500000000000E+008;-2.683831155300140E-001;-6.134029030799866E-001;
7.575000000000000E+008;-2.969788908958435E-001;-6.020914316177368E-001;
7.724500000000000E+008;-3.286930918693543E-001;-5.686150193214417E-001;
7.874000000000000E+008;-3.544522523880005E-001;-5.416910052299500E-001;
8.023500000000000E+008;-3.812621831893921E-001;-5.210946798324585E-001;
8.173000000000000E+008;-4.075851738452911E-001;-4.902509152889252E-001;
8.322500000000000E+008;-4.323870539665222E-001;-4.784266948699951E-001;
8.472000000000000E+008;-4.591339528560638E-001;-4.523964822292328E-001;
8.621500000000000E+008;-4.895955324172974E-001;-4.097515344619751E-001;
8.771000000000000E+008;-5.085545182228088E-001;-3.759950101375580E-001;
8.920500000000000E+008;-5.169530510902405E-001;-3.388319909572601E-001;
9.070000000000000E+008;-5.389450788497925E-001;-3.192448318004608E-001;
9.219500000000000E+008;-5.605077147483826E-001;-2.822507619857788E-001;
9.369000000000000E+008;-5.660297274589539E-001;-2.165972292423248E-001;
9.518500000000000E+008;-5.560541749000549E-001;-1.744406074285507E-001;
9.668000000000000E+008;-5.419409871101379E-001;-1.063611358404160E-001;
9.817500000000000E+008;-5.371012687683106E-001;-6.785906106233597E-002;
9.967000000000000E+008;-5.200572609901428E-001;-2.037901990115643E-002;
1.011650000000000E+009;-4.878507554531097E-001;2.835486270487309E-002;
1.026600000000000E+009;-4.489184319972992E-001;6.882866472005844E-002;
1.041550000000000E+009;-3.978692591190338E-001;1.040122210979462E-001;
1.056500000000000E+009;-3.500872552394867E-001;1.452566385269165E-001;
1.071450000000000E+009;-2.993954122066498E-001;1.647915393114090E-001;
1.086400000000000E+009;-2.281845659017563E-001;1.690937727689743E-001;
1.101350000000000E+009;-1.729221194982529E-001;1.530207991600037E-001;
1.116300000000000E+009;-1.139650344848633E-001;1.251387596130371E-001;
1.131250000000000E+009;-2.798920869827271E-002;8.391211181879044E-002;
1.146200000000000E+009;7.390975952148438E-003;1.392354071140289E-002;
1.161150000000000E+009;2.215262688696384E-002;-6.019539013504982E-002;
1.176100000000000E+009;3.968219086527824E-002;-1.372007131576538E-001;
1.191050000000000E+009;2.167480252683163E-002;-2.390693724155426E-001;
1.206000000000000E+009;-2.578276023268700E-002;-3.119274675846100E-001;
1.220950000000000E+009;-8.302129060029984E-002;-3.660793602466583E-001;
1.235900000000000E+009;-1.570951789617539E-001;-3.831922113895416E-001;
1.250850000000000E+009;-2.339801043272018E-001;-3.756135404109955E-001;
1.265800000000000E+009;-3.132777214050293E-001;-3.780577778816223E-001;
1.280750000000000E+009;-3.836577236652374E-001;-3.563926219940186E-001;
1.295700000000000E+009;-4.386760890483856E-001;-3.342367708683014E-001;
1.310650000000000E+009;-4.746961295604706E-001;-2.970200181007385E-001;
1.325600000000000E+009;-5.031902194023132E-001;-2.339444905519486E-001;
1.340550000000000E+009;-5.333542227745056E-001;-1.770708113908768E-001;
1.355500000000000E+009;-5.487071871757507E-001;-1.264416426420212E-001;
1.370450000000000E+009;-5.652862787246704E-001;-8.452228456735611E-002;
1.385400000000000E+009;-5.647978186607361E-001;-6.243675574660301E-002;
1.400350000000000E+009;-5.432746410369873E-001;-2.799044176936150E-002;
1.415300000000000E+009;-5.209683775901794E-001;1.035555917769671E-002;
1.430250000000000E+009;-4.986491799354553E-001;3.784697502851486E-002;
1.445200000000000E+009;-4.890957474708557E-001;7.110897451639175E-002;
1.460150000000000E+009;-4.818635284900665E-001;7.236187905073166E-002;
1.475100000000000E+009;-4.683806598186493E-001;8.492562919855118E-002;
1.490050000000000E+009;-4.400441944599152E-001;1.038380935788155E-001;
1.505000000000000E+009;-4.151688516139984E-001;1.081868633627892E-001;
1.519950000000000E+009;-3.965341746807098E-001;1.372432857751846E-001;
1.534900000000000E+009;-4.028148055076599E-001;1.439830660820007E-001;
1.549850000000000E+009;-4.129183590412140E-001;1.336650997400284E-001;
1.564800000000000E+009;-4.278955161571503E-001;1.326207667589188E-001;
1.579750000000000E+009;-4.261716604232788E-001;1.223412081599236E-001;
1.594700000000000E+009;-4.168137013912201E-001;1.421144902706146E-001;
1.609650000000000E+009;-4.111196994781494E-001;1.689220219850540E-001;
1.624600000000000E+009;-4.285425543785095E-001;1.853754222393036E-001;
1.639550000000000E+009;-4.483282566070557E-001;2.093257457017899E-001;
1.654500000000000E+009;-4.630751013755798E-001;2.100806981325150E-001;
1.669450000000000E+009;-4.507880210876465E-001;2.234883159399033E-001;
1.684400000000000E+009;-4.277555346488953E-001;2.459632307291031E-001;
1.699350000000000E+009;-3.977206349372864E-001;2.708001136779785E-001;
1.714300000000000E+009;-3.738433420658112E-001;3.201090991497040E-001;
1.729250000000000E+009;-3.612139821052551E-001;3.441246449947357E-001;
1.744200000000000E+009;-3.427797555923462E-001;3.501290678977966E-001;
1.759150000000000E+009;-3.225965201854706E-001;3.472372293472290E-001;
1.774100000000000E+009;-2.952857911586762E-001;3.380415439605713E-001;
1.789050000000000E+009;-2.515097558498383E-001;3.484425246715546E-001;
1.804000000000000E+009;-2.388102412223816E-001;3.615560531616211E-001;
1.818950000000000E+009;-2.370731532573700E-001;3.472642600536346E-001;
1.833900000000000E+009;-2.545084953308106E-001;3.400669693946838E-001;
1.848850000000000E+009;-2.596503794193268E-001;3.154398798942566E-001;
1.863800000000000E+009;-2.367462068796158E-001;2.877390682697296E-001;
1.878750000000000E+009;-2.371819168329239E-001;2.969397604465485E-001;
1.893700000000000E+009;-2.361990362405777E-001;3.057779669761658E-001;
1.908650000000000E+009;-2.476490736007690E-001;3.185754120349884E-001;
1.923600000000000E+009;-2.846464514732361E-001;3.203905820846558E-001;
1.938550000000000E+009;-3.094755411148071E-001;3.145240843296051E-001;
1.953500000000000E+009;-3.083907663822174E-001;3.217564523220062E-001;
1.968450000000000E+009;-2.959206104278565E-001;3.320412039756775E-001;
1.983400000000000E+009;-2.704512774944305E-001;3.732221722602844E-001;
1.998350000000000E+009;-2.691429853439331E-001;4.198496043682098E-001;
2.013300000000000E+009;-2.947224676609039E-001;4.589200317859650E-001;
2.028250000000000E+009;-3.091321885585785E-001;4.902451634407044E-001;
2.043200000000000E+009;-3.142001032829285E-001;5.166009068489075E-001;
2.058150000000000E+009;-2.705855965614319E-001;5.351559519767761E-001;
2.073100000000000E+009;-2.295382171869278E-001;5.653881430625916E-001;
2.088050000000000E+009;-1.986096948385239E-001;6.172778606414795E-001;
2.103000000000000E+009;-1.826853901147842E-001;6.504541635513306E-001;
2.117950000000000E+009;-1.656409502029419E-001;6.842768192291260E-001;
2.132900000000000E+009;-1.242718175053597E-001;6.788079142570496E-001;
2.147850000000000E+009;-6.968211382627487E-002;6.814332604408264E-001;
2.162800000000000E+009;-2.586083952337503E-003;6.716123223304749E-001;
2.177750000000000E+009;3.330109640955925E-002;6.787376999855042E-001;
2.192700000000000E+009;7.480360567569733E-002;7.023177146911621E-001;
2.207650000000000E+009;8.491066098213196E-002;6.969308257102966E-001;
2.222600000000000E+009;1.057363376021385E-001;6.850386261940002E-001;
2.237550000000000E+009;1.321262866258621E-001;6.319496035575867E-001;
2.252500000000000E+009;1.896197497844696E-001;6.040970087051392E-001;
2.267450000000000E+009;2.460091710090637E-001;5.957928299903870E-001;
2.282400000000000E+009;2.659119665622711E-001;6.291258931159973E-001;
2.297350000000000E+009;2.705060243606567E-001;6.565351486206055E-001;
2.312300000000000E+009;2.426391541957855E-001;6.556270122528076E-001;
2.327250000000000E+009;2.581672370433807E-001;6.084421873092651E-001;
2.342200000000000E+009;2.845315635204315E-001;5.639747381210327E-001;
2.357150000000000E+009;3.355981111526489E-001;5.445654392242432E-001;
2.372100000000000E+009;3.846331238746643E-001;5.283371210098267E-001;
2.387050000000000E+009;4.237294495105743E-001;5.664923191070557E-001;
2.402000000000000E+009;4.301023185253143E-001;5.649913549423218E-001;
2.416950000000000E+009;4.225095212459564E-001;5.500389933586121E-001;
2.431900000000000E+009;4.466083049774170E-001;5.141852498054504E-001;
2.446850000000000E+009;4.754124581813812E-001;4.608349204063416E-001;
2.461800000000000E+009;5.444948673248291E-001;4.496982991695404E-001;
2.476750000000000E+009;5.770012140274048E-001;4.601406157016754E-001;
2.491700000000000E+009;5.905067920684815E-001;4.658392965793610E-001;
2.506650000000000E+009;5.850197076797485E-001;4.403108358383179E-001;
2.521600000000000E+009;5.760589241981506E-001;3.826149404048920E-001;
2.536550000000000E+009;6.098622679710388E-001;3.115946948528290E-001;
2.551500000000000E+009;6.576948165893555E-001;2.855166792869568E-001;
2.566450000000000E+009;7.001228928565979E-001;2.654308378696442E-001;
2.581400000000000E+009;7.099511027336121E-001;2.692234814167023E-001;
2.596350000000000E+009;6.782793402671814E-001;2.594513595104218E-001;
2.611300000000000E+009;6.388416290283203E-001;2.059209942817688E-001;
2.626250000000000E+009;6.293739080429077E-001;1.421605944633484E-001;
2.641200000000000E+009;6.465364694595337E-001;8.530054241418839E-002;
2.656150000000000E+009;6.798600554466248E-001;5.791315808892250E-002;
2.671100000000000E+009;6.949065923690796E-001;5.564402416348457E-002;
2.686050000000000E+009;6.913184523582459E-001;6.326247006654739E-002;
2.701000000000000E+009;6.629004478454590E-001;5.598353594541550E-002;
2.715950000000000E+009;6.327695846557617E-001;1.459277607500553E-002;
2.730900000000000E+009;6.396306157112122E-001;-2.788629941642284E-002;
2.745850000000000E+009;6.424272656440735E-001;-5.512252822518349E-002;
2.760800000000000E+009;6.585610508918762E-001;-5.960141494870186E-002;
2.775750000000000E+009;6.687098145484924E-001;-6.126600876450539E-002;
2.790700000000000E+009;6.319330334663391E-001;-7.861620187759399E-002;
2.805650000000000E+009;6.294184327125549E-001;-1.035191863775253E-001;
2.820600000000000E+009;6.274951100349426E-001;-1.324851512908936E-001;
2.835550000000000E+009;6.385054588317871E-001;-1.492310911417007E-001;
2.850500000000000E+009;6.557917594909668E-001;-1.702275723218918E-001;
2.865450000000000E+009;6.396725177764893E-001;-1.697567701339722E-001;
2.880400000000000E+009;6.270472407341003E-001;-1.913630068302155E-001;
2.895350000000000E+009;6.201556324958801E-001;-2.223041057586670E-001;
2.910300000000000E+009;6.115965247154236E-001;-2.581781446933746E-001;
2.925250000000000E+009;6.244549155235291E-001;-3.070559799671173E-001;
2.940200000000000E+009;6.417425274848938E-001;-3.198606371879578E-001;
2.955150000000000E+009;6.306424140930176E-001;-3.349725902080536E-001;
2.970100000000000E+009;6.203939318656921E-001;-3.551045060157776E-001;
2.985050000000000E+009;6.026067733764648E-001;-3.740009367465973E-001;
3.000000000000000E+009;5.755838751792908E-001;-4.106612503528595E-001;
