# Version 1.00
#
freq[Hz];re:Trc1_S11;im:Trc1_S11;
1.000000000000000E+007;9.579741358757019E-001;-1.058318391442299E-001;
2.495000000000000E+007;9.847413301467896E-001;-1.220396459102631E-001;
3.990000000000000E+007;9.771522879600525E-001;-1.822597384452820E-001;
5.485000000000000E+007;9.610412716865540E-001;-2.584000229835510E-001;
6.980000000000000E+007;9.420812726020813E-001;-3.127473592758179E-001;
8.475000000000000E+007;8.774717450141907E-001;-3.761149048805237E-001;
9.970000000000000E+007;8.486548662185669E-001;-4.338226318359375E-001;
1.146500000000000E+008;8.504163026809692E-001;-4.659063220024109E-001;
1.296000000000000E+008;7.981082797050476E-001;-5.172079205513001E-001;
1.445500000000000E+008;7.653839588165283E-001;-6.011675000190735E-001;
1.595000000000000E+008;6.687799096107483E-001;-6.631776690483093E-001;
1.744500000000000E+008;5.986706018447876E-001;-6.366180777549744E-001;
1.894000000000000E+008;6.221338510513306E-001;-7.196728587150574E-001;
2.043500000000000E+008;5.227950215339661E-001;-7.888160943984985E-001;
2.193000000000000E+008;4.110573828220367E-001;-8.232932686805725E-001;
2.342500000000000E+008;3.253273367881775E-001;-8.108153939247131E-001;
2.492000000000000E+008;2.484151721000671E-001;-8.325329422950745E-001;
2.641500000000000E+008;1.311468482017517E-001;-8.474259972572327E-001;
2.791000000000000E+008;1.204789895564318E-002;-7.927133440971375E-001;
2.940500000000000E+008;-6.663886457681656E-002;-7.394522428512573E-001;
3.090000000000000E+008;-1.917114406824112E-001;-6.680696010589600E-001;
3.239500000000000E+008;-2.972654104232788E-001;-5.191749334335327E-001;
3.389000000000000E+008;-3.238971233367920E-001;-3.555312454700470E-001;
3.538500000000000E+008;-2.984083890914917E-001;-1.779447942972183E-001;
3.688000000000000E+008;-1.682665497064591E-001;-1.550058554857969E-002;
3.837500000000000E+008;-5.273926071822643E-003;-1.089237281121314E-003;
3.987000000000000E+008;9.034366905689240E-002;2.955056354403496E-002;
4.136500000000000E+008;1.984086930751801E-001;4.749050363898277E-002;
4.286000000000000E+008;3.413282930850983E-001;-2.257439494132996E-002;
4.435500000000000E+008;4.034875929355621E-001;-1.363964527845383E-001;
4.585000000000000E+008;4.259184002876282E-001;-2.389370799064636E-001;
4.734500000000000E+008;4.270677566528320E-001;-3.053981363773346E-001;
4.884000000000000E+008;4.243001043796539E-001;-3.732594549655914E-001;
5.033500000000000E+008;4.128603637218475E-001;-4.285497367382050E-001;
5.183000000000000E+008;3.843092620372772E-001;-4.831889867782593E-001;
5.332500000000000E+008;3.509906530380249E-001;-5.548087358474731E-001;
5.482000000000000E+008;2.924404740333557E-001;-5.794432759284973E-001;
5.631500000000000E+008;2.649050652980804E-001;-6.052774190902710E-001;
5.781000000000000E+008;2.315144538879395E-001;-6.335994005203247E-001;
5.930500000000000E+008;1.725423932075501E-001;-6.522063016891480E-001;
6.080000000000000E+008;1.261471956968308E-001;-6.652931571006775E-001;
6.229500000000000E+008;7.298609614372253E-002;-6.821702122688294E-001;
6.379000000000000E+008;2.029616944491863E-002;-6.820649504661560E-001;
6.528500000000000E+008;-8.315419778227806E-003;-6.892675757408142E-001;
6.678000000000000E+008;-4.984684661030769E-002;-6.849435567855835E-001;
6.827500000000000E+008;-9.603767096996307E-002;-6.793685555458069E-001;
6.977000000000000E+008;-1.295116543769836E-001;-6.627395153045654E-001;
7.126500000000000E+008;-1.715622991323471E-001;-6.609508395195007E-001;
7.276000000000000E+008;-2.150927484035492E-001;-6.486328244209290E-001;
7.425500000000000E+008;-2.430351823568344E-001;-6.356882452964783E-001;
7.575000000000000E+008;-2.788262665271759E-001;-6.240969896316528E-001;
7.724500000000000E+008;-3.167047202587128E-001;-5.912374854087830E-001;
7.874000000000000E+008;-3.451453447341919E-001;-5.585914254188538E-001;
8.023500000000000E+008;-3.790178000926971E-001;-5.316052436828613E-001;
8.173000000000000E+008;-4.004704952239990E-001;-4.983368515968323E-001;
8.322500000000000E+008;-4.246069192886353E-001;-4.793065786361694E-001;
8.472000000000000E+008;-4.450925886631012E-001;-4.624519348144531E-001;
8.621500000000000E+008;-4.794941842556000E-001;-4.298047721385956E-001;
8.771000000000000E+008;-5.028042793273926E-001;-3.839320540428162E-001;
8.920500000000000E+008;-5.172722935676575E-001;-3.528114557266235E-001;
9.070000000000000E+008;-5.365846157073975E-001;-3.265582919120789E-001;
9.219500000000000E+008;-5.512262582778931E-001;-2.917081713676453E-001;
9.369000000000000E+008;-5.603188276290894E-001;-2.445970624685288E-001;
9.518500000000000E+008;-5.600416064262390E-001;-1.892097145318985E-001;
9.668000000000000E+008;-5.449450612068176E-001;-1.229025647044182E-001;
9.817500000000000E+008;-5.427302718162537E-001;-7.978771626949310E-002;
9.967000000000000E+008;-5.253573656082153E-001;-2.029376663267613E-002;
1.011650000000000E+009;-4.964221417903900E-001;1.649232022464275E-002;
1.026600000000000E+009;-4.686741232872009E-001;5.859849974513054E-002;
1.041550000000000E+009;-4.221418797969818E-001;1.117272675037384E-001;
1.056500000000000E+009;-3.672377765178680E-001;1.634695231914520E-001;
1.071450000000000E+009;-3.041408956050873E-001;1.925935894250870E-001;
1.086400000000000E+009;-2.370560020208359E-001;1.913326084613800E-001;
1.101350000000000E+009;-1.887250840663910E-001;1.718433797359467E-001;
1.116300000000000E+009;-1.344390511512756E-001;1.612787693738937E-001;
1.131250000000000E+009;-5.356932431459427E-002;1.306688338518143E-001;
1.146200000000000E+009;-1.384007511660457E-003;8.052516728639603E-002;
1.161150000000000E+009;3.892762959003449E-002;2.244582027196884E-002;
1.176100000000000E+009;7.869134843349457E-002;-6.110184639692307E-002;
1.191050000000000E+009;7.408045977354050E-002;-1.641400605440140E-001;
1.206000000000000E+009;4.962519556283951E-002;-2.521176934242249E-001;
1.220950000000000E+009;9.522950276732445E-003;-3.153122067451477E-001;
1.235900000000000E+009;-4.734518378973007E-002;-3.491365611553192E-001;
1.250850000000000E+009;-1.116518378257752E-001;-3.719435334205627E-001;
1.265800000000000E+009;-1.983604431152344E-001;-3.902544379234314E-001;
1.280750000000000E+009;-2.814039289951325E-001;-3.977106213569641E-001;
1.295700000000000E+009;-3.472500443458557E-001;-3.873234987258911E-001;
1.310650000000000E+009;-4.040057957172394E-001;-3.587338328361511E-001;
1.325600000000000E+009;-4.412068724632263E-001;-3.052449524402618E-001;
1.340550000000000E+009;-4.794210791587830E-001;-2.457228749990463E-001;
1.355500000000000E+009;-5.205860137939453E-001;-1.938604116439819E-001;
1.370450000000000E+009;-5.465740561485291E-001;-1.461125016212463E-001;
1.385400000000000E+009;-5.569474101066589E-001;-1.206364631652832E-001;
1.400350000000000E+009;-5.481407642364502E-001;-8.830065280199051E-002;
1.415300000000000E+009;-5.234079360961914E-001;-4.144119098782539E-002;
1.430250000000000E+009;-5.029236078262329E-001;-4.483187571167946E-003;
1.445200000000000E+009;-4.947367608547211E-001;2.653929032385349E-002;
1.460150000000000E+009;-4.813611507415772E-001;4.622360691428185E-002;
1.475100000000000E+009;-4.684132635593414E-001;6.137662753462791E-002;
1.490050000000000E+009;-4.331085681915283E-001;7.845349609851837E-002;
1.505000000000000E+009;-4.029609262943268E-001;9.685682505369186E-002;
1.519950000000000E+009;-3.757131397724152E-001;1.197643876075745E-001;
1.534900000000000E+009;-3.853525221347809E-001;1.299169063568115E-001;
1.549850000000000E+009;-4.049798548221588E-001;1.348293721675873E-001;
1.564800000000000E+009;-4.044060409069061E-001;1.341848522424698E-001;
1.579750000000000E+009;-3.846760988235474E-001;1.204528883099556E-001;
1.594700000000000E+009;-3.636411726474762E-001;1.227306723594666E-001;
1.609650000000000E+009;-3.574277162551880E-001;1.344644129276276E-001;
1.624600000000000E+009;-3.768751621246338E-001;1.426106840372086E-001;
1.639550000000000E+009;-4.094686508178711E-001;1.571092456579208E-001;
1.654500000000000E+009;-4.375611245632172E-001;1.623004376888275E-001;
1.669450000000000E+009;-4.332740902900696E-001;1.685175746679306E-001;
1.684400000000000E+009;-4.004209041595459E-001;1.861015111207962E-001;
1.699350000000000E+009;-3.698857128620148E-001;1.975778937339783E-001;
1.714300000000000E+009;-3.623565733432770E-001;2.367978841066361E-001;
1.729250000000000E+009;-3.563652336597443E-001;2.779612839221954E-001;
1.744200000000000E+009;-3.479453623294830E-001;2.873866260051727E-001;
1.759150000000000E+009;-3.205474019050598E-001;2.955388724803925E-001;
1.774100000000000E+009;-2.894124090671539E-001;2.842394709587097E-001;
1.789050000000000E+009;-2.519422471523285E-001;2.928703427314758E-001;
1.804000000000000E+009;-2.361165583133698E-001;3.013999462127686E-001;
1.818950000000000E+009;-2.399459630250931E-001;3.000366389751434E-001;
1.833900000000000E+009;-2.539229989051819E-001;2.786481976509094E-001;
1.848850000000000E+009;-2.575447857379913E-001;2.486047744750977E-001;
1.863800000000000E+009;-2.505977451801300E-001;2.197905480861664E-001;
1.878750000000000E+009;-2.378209233283997E-001;2.145738899707794E-001;
1.893700000000000E+009;-2.367389798164368E-001;2.345325052738190E-001;
1.908650000000000E+009;-2.609609663486481E-001;2.384884208440781E-001;
1.923600000000000E+009;-3.005240261554718E-001;2.454200536012650E-001;
1.938550000000000E+009;-3.315942585468292E-001;2.294715344905853E-001;
1.953500000000000E+009;-3.474979698657990E-001;2.234049290418625E-001;
1.968450000000000E+009;-3.360383212566376E-001;2.369503229856491E-001;
1.983400000000000E+009;-3.259355425834656E-001;2.738426029682159E-001;
1.998350000000000E+009;-3.268825113773346E-001;3.319123983383179E-001;
2.013300000000000E+009;-3.565258085727692E-001;3.772757649421692E-001;
2.028250000000000E+009;-3.833750486373901E-001;4.158203303813934E-001;
2.043200000000000E+009;-3.976431787014008E-001;4.393366873264313E-001;
2.058150000000000E+009;-3.704027533531189E-001;4.740049242973328E-001;
2.073100000000000E+009;-3.306711316108704E-001;5.120238065719605E-001;
2.088050000000000E+009;-3.127000927925110E-001;5.663400292396545E-001;
2.103000000000000E+009;-2.899175584316254E-001;6.128646731376648E-001;
2.117950000000000E+009;-2.823015749454498E-001;6.528072953224182E-001;
2.132900000000000E+009;-2.386880964040756E-001;6.642595529556274E-001;
2.147850000000000E+009;-1.769927293062210E-001;6.705480813980103E-001;
2.162800000000000E+009;-1.148760467767716E-001;6.781441569328308E-001;
2.177750000000000E+009;-6.346934288740158E-002;6.918562054634094E-001;
2.192700000000000E+009;-3.007934428751469E-002;7.259387969970703E-001;
2.207650000000000E+009;-1.469452958554030E-002;7.367893457412720E-001;
2.222600000000000E+009;1.562745310366154E-002;7.142187356948853E-001;
2.237550000000000E+009;5.939875170588493E-002;6.719904541969299E-001;
2.252500000000000E+009;1.183163598179817E-001;6.410307884216309E-001;
2.267450000000000E+009;1.818693280220032E-001;6.289758086204529E-001;
2.282400000000000E+009;2.087935358285904E-001;6.618134379386902E-001;
2.297350000000000E+009;2.006653249263763E-001;6.877294182777405E-001;
2.312300000000000E+009;1.875621378421783E-001;6.839403510093689E-001;
2.327250000000000E+009;1.832406669855118E-001;6.447984576225281E-001;
2.342200000000000E+009;2.160886377096176E-001;5.934538841247559E-001;
2.357150000000000E+009;2.658300101757050E-001;5.629013776779175E-001;
2.372100000000000E+009;3.106966614723206E-001;5.659698247909546E-001;
2.387050000000000E+009;3.468651771545410E-001;5.907089114189148E-001;
2.402000000000000E+009;3.524336218833923E-001;6.112387776374817E-001;
2.416950000000000E+009;3.511494100093842E-001;5.991188287734985E-001;
2.431900000000000E+009;3.728390634059906E-001;5.710500478744507E-001;
2.446850000000000E+009;4.216831922531128E-001;5.332613587379456E-001;
2.461800000000000E+009;4.821527302265167E-001;5.258752703666687E-001;
2.476750000000000E+009;5.285832285881043E-001;5.394245386123657E-001;
2.491700000000000E+009;5.445538759231567E-001;5.486885905265808E-001;
2.506650000000000E+009;5.296373963356018E-001;5.310961008071899E-001;
2.521600000000000E+009;5.357360243797302E-001;4.602393507957459E-001;
2.536550000000000E+009;5.703306198120117E-001;3.981679379940033E-001;
2.551500000000000E+009;6.297253370285034E-001;3.637043833732605E-001;
2.566450000000000E+009;6.819938421249390E-001;3.492734730243683E-001;
2.581400000000000E+009;7.003409862518311E-001;3.681062161922455E-001;
2.596350000000000E+009;6.612594723701477E-001;3.477019965648651E-001;
2.611300000000000E+009;6.244339346885681E-001;2.991099357604981E-001;
2.626250000000000E+009;6.138774752616882E-001;2.246913611888886E-001;
2.641200000000000E+009;6.350381374359131E-001;1.617258042097092E-001;
2.656150000000000E+009;6.935139894485474E-001;1.354236453771591E-001;
2.671100000000000E+009;7.072086930274963E-001;1.323504447937012E-001;
2.686050000000000E+009;7.172241806983948E-001;1.403997689485550E-001;
2.701000000000000E+009;6.816372275352478E-001;1.361625343561173E-001;
2.715950000000000E+009;6.614903807640076E-001;9.809944778680801E-002;
2.730900000000000E+009;6.581675410270691E-001;4.276661947369576E-002;
2.745850000000000E+009;6.662813425064087E-001;1.906869560480118E-002;
2.760800000000000E+009;6.941650509834290E-001;1.074475049972534E-002;
2.775750000000000E+009;6.971678733825684E-001;1.297762989997864E-002;
2.790700000000000E+009;6.798602938652039E-001;-1.007098425179720E-002;
2.805650000000000E+009;6.542590260505676E-001;-3.506626933813095E-002;
2.820600000000000E+009;6.560836434364319E-001;-7.853392511606216E-002;
2.835550000000000E+009;6.868094801902771E-001;-9.790389239788055E-002;
2.850500000000000E+009;7.017194628715515E-001;-1.047503426671028E-001;
2.865450000000000E+009;6.889585256576538E-001;-1.254393309354782E-001;
2.880400000000000E+009;6.798720359802246E-001;-1.316276639699936E-001;
2.895350000000000E+009;6.577624082565308E-001;-1.711215525865555E-001;
2.910300000000000E+009;6.697415709495544E-001;-2.137842476367950E-001;
2.925250000000000E+009;6.859086155891419E-001;-2.601220905780792E-001;
2.940200000000000E+009;6.977662444114685E-001;-2.973598837852478E-001;
2.955150000000000E+009;7.111154794692993E-001;-3.090139329433441E-001;
2.970100000000000E+009;6.856685280799866E-001;-3.246561586856842E-001;
2.985050000000000E+009;6.701335310935974E-001;-3.484016358852387E-001;
3.000000000000000E+009;6.548813581466675E-001;-3.878213465213776E-001;
