# Version 1.00
#
freq[Hz];re:Trc1_S11[U];im:Trc1_S11[U];
1.000000000000000E+007;9.138271212577820E-001;-8.116642385721207E-002;
2.495000000000000E+007;1.001693487167358E+000;-1.330142915248871E-001;
3.990000000000000E+007;9.719122648239136E-001;-1.746290475130081E-001;
5.485000000000000E+007;9.511690139770508E-001;-2.470459938049316E-001;
6.980000000000000E+007;9.462903738021851E-001;-3.112058043479919E-001;
8.475000000000000E+007;8.715751171112061E-001;-3.898863792419434E-001;
9.970000000000000E+007;8.518833518028259E-001;-4.451020359992981E-001;
1.146500000000000E+008;8.434289097785950E-001;-4.644126892089844E-001;
1.296000000000000E+008;7.980325222015381E-001;-5.164271593093872E-001;
1.445500000000000E+008;7.592290639877319E-001;-6.154767274856567E-001;
1.595000000000000E+008;6.564065814018250E-001;-6.712092757225037E-001;
1.744500000000000E+008;5.865963697433472E-001;-6.500847339630127E-001;
1.894000000000000E+008;6.060630679130554E-001;-7.133266925811768E-001;
2.043500000000000E+008;5.093605518341065E-001;-7.922621369361877E-001;
2.193000000000000E+008;4.064782261848450E-001;-8.274888396263123E-001;
2.342500000000000E+008;2.805042862892151E-001;-8.115841746330261E-001;
2.492000000000000E+008;2.438506335020065E-001;-8.121727108955383E-001;
2.641500000000000E+008;1.282759457826614E-001;-8.323328495025635E-001;
2.791000000000000E+008;1.551472931168973E-003;-7.994948625564575E-001;
2.940500000000000E+008;-1.140705719590187E-001;-7.313536405563355E-001;
3.090000000000000E+008;-2.248641550540924E-001;-6.272775530815125E-001;
3.239500000000000E+008;-2.918114066123962E-001;-4.556736946105957E-001;
3.389000000000000E+008;-2.978177070617676E-001;-3.294572830200195E-001;
3.538500000000000E+008;-2.861636579036713E-001;-1.630091071128845E-001;
3.688000000000000E+008;-1.502612978219986E-001;5.183083005249500E-003;
3.837500000000000E+008;3.798533976078033E-002;3.333291783928871E-002;
3.987000000000000E+008;1.692963540554047E-001;3.023160621523857E-002;
4.136500000000000E+008;2.615765035152435E-001;-9.132388513535261E-004;
4.286000000000000E+008;3.672986030578613E-001;-7.194409519433975E-002;
4.435500000000000E+008;4.139311611652374E-001;-1.980615407228470E-001;
4.585000000000000E+008;4.219616055488586E-001;-2.898821234703064E-001;
4.734500000000000E+008;4.039454162120819E-001;-3.407886922359467E-001;
4.884000000000000E+008;4.038501679897308E-001;-4.032737016677856E-001;
5.033500000000000E+008;3.919917345046997E-001;-4.538814723491669E-001;
5.183000000000000E+008;3.606171905994415E-001;-5.157160758972168E-001;
5.332500000000000E+008;3.232449889183044E-001;-5.825381278991699E-001;
5.482000000000000E+008;2.611839473247528E-001;-6.032490134239197E-001;
5.631500000000000E+008;2.188311964273453E-001;-6.196327805519104E-001;
5.781000000000000E+008;1.978444755077362E-001;-6.395462155342102E-001;
5.930500000000000E+008;1.471027433872223E-001;-6.607643961906433E-001;
6.080000000000000E+008;9.340517967939377E-002;-6.740164756774902E-001;
6.229500000000000E+008;4.263855889439583E-002;-6.879833936691284E-001;
6.379000000000000E+008;-5.992946680635214E-003;-6.838698983192444E-001;
6.528500000000000E+008;-3.708557784557343E-002;-6.916947960853577E-001;
6.678000000000000E+008;-8.246497809886932E-002;-6.839609146118164E-001;
6.827500000000000E+008;-1.273241341114044E-001;-6.641169190406799E-001;
6.977000000000000E+008;-1.546524018049240E-001;-6.528152227401733E-001;
7.126500000000000E+008;-1.971974372863770E-001;-6.507586836814880E-001;
7.276000000000000E+008;-2.363370805978775E-001;-6.365411877632141E-001;
7.425500000000000E+008;-2.660880982875824E-001;-6.145528554916382E-001;
7.575000000000000E+008;-2.934092283248901E-001;-6.042922735214233E-001;
7.724500000000000E+008;-3.247097432613373E-001;-5.745609998703003E-001;
7.874000000000000E+008;-3.576278686523438E-001;-5.467383861541748E-001;
8.023500000000000E+008;-3.849078416824341E-001;-5.206484198570252E-001;
8.173000000000000E+008;-4.100977778434753E-001;-4.869070351123810E-001;
8.322500000000000E+008;-4.274049103260040E-001;-4.768430888652802E-001;
8.472000000000000E+008;-4.543642997741699E-001;-4.543622732162476E-001;
8.621500000000000E+008;-4.860415160655975E-001;-4.129912555217743E-001;
8.771000000000000E+008;-5.083994865417481E-001;-3.816359341144562E-001;
8.920500000000000E+008;-5.239071249961853E-001;-3.412278592586517E-001;
9.070000000000000E+008;-5.421859622001648E-001;-3.162673115730286E-001;
9.219500000000000E+008;-5.594125390052795E-001;-2.793141007423401E-001;
9.369000000000000E+008;-5.635426044464111E-001;-2.165303975343704E-001;
9.518500000000000E+008;-5.522022247314453E-001;-1.753501147031784E-001;
9.668000000000000E+008;-5.394833683967590E-001;-1.100557148456574E-001;
9.817500000000000E+008;-5.382301807403565E-001;-7.416906207799912E-002;
9.967000000000000E+008;-5.232716798782349E-001;-2.256550081074238E-002;
1.011650000000000E+009;-4.911481440067291E-001;2.815647795796394E-002;
1.026600000000000E+009;-4.523803591728210E-001;6.858773529529572E-002;
1.041550000000000E+009;-3.982863128185272E-001;1.067603453993797E-001;
1.056500000000000E+009;-3.473387062549591E-001;1.448929309844971E-001;
1.071450000000000E+009;-2.993588447570801E-001;1.628122180700302E-001;
1.086400000000000E+009;-2.289194315671921E-001;1.681441813707352E-001;
1.101350000000000E+009;-1.733541339635849E-001;1.527395248413086E-001;
1.116300000000000E+009;-1.133439168334007E-001;1.248250156641007E-001;
1.131250000000000E+009;-2.876791544258595E-002;8.363761007785797E-002;
1.146200000000000E+009;7.832127623260021E-003;1.367827225476503E-002;
1.161150000000000E+009;2.245477959513664E-002;-6.118070706725121E-002;
1.176100000000000E+009;3.870007395744324E-002;-1.376683562994003E-001;
1.191050000000000E+009;2.149496600031853E-002;-2.387139648199081E-001;
1.206000000000000E+009;-2.457686886191368E-002;-3.133234977722168E-001;
1.220950000000000E+009;-8.212473988533020E-002;-3.663389384746552E-001;
1.235900000000000E+009;-1.540657281875610E-001;-3.838539719581604E-001;
1.250850000000000E+009;-2.325746268033981E-001;-3.779589831829071E-001;
1.265800000000000E+009;-3.127174079418182E-001;-3.786606192588806E-001;
1.280750000000000E+009;-3.840204775333405E-001;-3.578055202960968E-001;
1.295700000000000E+009;-4.385387301445007E-001;-3.352124691009522E-001;
1.310650000000000E+009;-4.741753041744232E-001;-2.978053689002991E-001;
1.325600000000000E+009;-5.014703273773193E-001;-2.359586656093597E-001;
1.340550000000000E+009;-5.312878489494324E-001;-1.799146234989166E-001;
1.355500000000000E+009;-5.489095449447632E-001;-1.295552551746368E-001;
1.370450000000000E+009;-5.666151046752930E-001;-8.794995397329330E-002;
1.385400000000000E+009;-5.693511962890625E-001;-6.451143324375153E-002;
1.400350000000000E+009;-5.470067262649536E-001;-2.844240702688694E-002;
1.415300000000000E+009;-5.228114724159241E-001;1.014402043074369E-002;
1.430250000000000E+009;-4.986438751220703E-001;3.810478001832962E-002;
1.445200000000000E+009;-4.889190196990967E-001;6.974975019693375E-002;
1.460150000000000E+009;-4.790510237216950E-001;7.120236754417419E-002;
1.475100000000000E+009;-4.681625664234161E-001;7.955306023359299E-002;
1.490050000000000E+009;-4.419838786125183E-001;9.975537657737732E-002;
1.505000000000000E+009;-4.168677330017090E-001;1.034143716096878E-001;
1.519950000000000E+009;-4.019984304904938E-001;1.348904371261597E-001;
1.534900000000000E+009;-4.054240584373474E-001;1.468339860439301E-001;
1.549850000000000E+009;-4.152997136116028E-001;1.345826238393784E-001;
1.564800000000000E+009;-4.277361929416657E-001;1.331599354743958E-001;
1.579750000000000E+009;-4.266126453876495E-001;1.203354224562645E-001;
1.594700000000000E+009;-4.163638055324554E-001;1.417408585548401E-001;
1.609650000000000E+009;-4.101112484931946E-001;1.649884134531021E-001;
1.624600000000000E+009;-4.313991367816925E-001;1.827979087829590E-001;
1.639550000000000E+009;-4.496558010578156E-001;2.074424773454666E-001;
1.654500000000000E+009;-4.675609767436981E-001;2.077050358057022E-001;
1.669450000000000E+009;-4.565420150756836E-001;2.234767377376556E-001;
1.684400000000000E+009;-4.312802553176880E-001;2.464529871940613E-001;
1.699350000000000E+009;-3.984412550926209E-001;2.708823978900909E-001;
1.714300000000000E+009;-3.745916485786438E-001;3.176394701004028E-001;
1.729250000000000E+009;-3.635551631450653E-001;3.425218164920807E-001;
1.744200000000000E+009;-3.458339273929596E-001;3.478273749351502E-001;
1.759150000000000E+009;-3.266352713108063E-001;3.481392562389374E-001;
1.774100000000000E+009;-2.971604168415070E-001;3.399322330951691E-001;
1.789050000000000E+009;-2.529132366180420E-001;3.484263122081757E-001;
1.804000000000000E+009;-2.377706021070480E-001;3.619328439235687E-001;
1.818950000000000E+009;-2.395435720682144E-001;3.440553247928619E-001;
1.833900000000000E+009;-2.599831223487854E-001;3.379648625850678E-001;
1.848850000000000E+009;-2.638312876224518E-001;3.153299093246460E-001;
1.863800000000000E+009;-2.412719130516052E-001;2.904161512851715E-001;
1.878750000000000E+009;-2.371843904256821E-001;2.976174354553223E-001;
1.893700000000000E+009;-2.388382703065872E-001;3.052657544612885E-001;
1.908650000000000E+009;-2.494189441204071E-001;3.214715123176575E-001;
1.923600000000000E+009;-2.862532138824463E-001;3.205554485321045E-001;
1.938550000000000E+009;-3.114965856075287E-001;3.146192431449890E-001;
1.953500000000000E+009;-3.110537230968475E-001;3.191015720367432E-001;
1.968450000000000E+009;-3.013034462928772E-001;3.314144313335419E-001;
1.983400000000000E+009;-2.728779613971710E-001;3.719362914562225E-001;
1.998350000000000E+009;-2.741512358188629E-001;4.200073778629303E-001;
2.013300000000000E+009;-2.977073788642883E-001;4.612664282321930E-001;
2.028250000000000E+009;-3.129762411117554E-001;4.918767809867859E-001;
2.043200000000000E+009;-3.169226944446564E-001;5.191573500633240E-001;
2.058150000000000E+009;-2.735131978988648E-001;5.364800691604614E-001;
2.073100000000000E+009;-2.355638593435288E-001;5.685319304466248E-001;
2.088050000000000E+009;-2.013597637414932E-001;6.189746260643005E-001;
2.103000000000000E+009;-1.880259066820145E-001;6.533198356628418E-001;
2.117950000000000E+009;-1.680922359228134E-001;6.866820454597473E-001;
2.132900000000000E+009;-1.289080530405045E-001;6.810846328735352E-001;
2.147850000000000E+009;-7.240232825279236E-002;6.859561800956726E-001;
2.162800000000000E+009;-6.688951514661312E-003;6.753684282302856E-001;
2.177750000000000E+009;3.092748485505581E-002;6.855772733688355E-001;
2.192700000000000E+009;7.315791398286820E-002;7.058174014091492E-001;
2.207650000000000E+009;8.189995586872101E-002;7.032152414321899E-001;
2.222600000000000E+009;1.037461906671524E-001;6.892841458320618E-001;
2.237550000000000E+009;1.289841085672379E-001;6.358061432838440E-001;
2.252500000000000E+009;1.884593963623047E-001;6.100190281867981E-001;
2.267450000000000E+009;2.459045499563217E-001;5.988525152206421E-001;
2.282400000000000E+009;2.663760781288147E-001;6.358872056007385E-001;
2.297350000000000E+009;2.702880203723908E-001;6.609031558036804E-001;
2.312300000000000E+009;2.429805994033814E-001;6.629514694213867E-001;
2.327250000000000E+009;2.590670883655548E-001;6.139875650405884E-001;
2.342200000000000E+009;2.843953073024750E-001;5.700373649597168E-001;
2.357150000000000E+009;3.371112942695618E-001;5.484194755554199E-001;
2.372100000000000E+009;3.835154771804810E-001;5.319236516952515E-001;
2.387050000000000E+009;4.253705739974976E-001;5.709472894668579E-001;
2.402000000000000E+009;4.312363564968109E-001;5.685868859291077E-001;
2.416950000000000E+009;4.241031408309937E-001;5.585728883743286E-001;
2.431900000000000E+009;4.505373239517212E-001;5.183770060539246E-001;
2.446850000000000E+009;4.781149327754974E-001;4.665172696113586E-001;
2.461800000000000E+009;5.496188998222351E-001;4.547477066516876E-001;
2.476750000000000E+009;5.796402692794800E-001;4.635337889194489E-001;
2.491700000000000E+009;5.955128073692322E-001;4.711748659610748E-001;
2.506650000000000E+009;5.860683917999268E-001;4.436617493629456E-001;
2.521600000000000E+009;5.800700783729553E-001;3.871045708656311E-001;
2.536550000000000E+009;6.138976216316223E-001;3.145826756954193E-001;
2.551500000000000E+009;6.614932417869568E-001;2.883521020412445E-001;
2.566450000000000E+009;7.080142498016357E-001;2.676579654216766E-001;
2.581400000000000E+009;7.136088609695435E-001;2.730168402194977E-001;
2.596350000000000E+009;6.848949193954468E-001;2.622033953666687E-001;
2.611300000000000E+009;6.413766145706177E-001;2.075357288122177E-001;
2.626250000000000E+009;6.336609721183777E-001;1.451617926359177E-001;
2.641200000000000E+009;6.501570940017700E-001;8.442129939794540E-002;
2.656150000000000E+009;6.845095157623291E-001;5.996263027191162E-002;
2.671100000000000E+009;7.015119194984436E-001;5.477089434862137E-002;
2.686050000000000E+009;6.960344314575195E-001;6.506942212581635E-002;
2.701000000000000E+009;6.699417233467102E-001;5.636456981301308E-002;
2.715950000000000E+009;6.359115839004517E-001;1.527274027466774E-002;
2.730900000000000E+009;6.443508267402649E-001;-2.761753275990486E-002;
2.745850000000000E+009;6.466388702392578E-001;-5.617185682058334E-002;
2.760800000000000E+009;6.638005971908569E-001;-5.769364908337593E-002;
2.775750000000000E+009;6.733013987541199E-001;-6.330046057701111E-002;
2.790700000000000E+009;6.358333230018616E-001;-7.786077260971069E-002;
2.805650000000000E+009;6.337139606475830E-001;-1.055915355682373E-001;
2.820600000000000E+009;6.311667561531067E-001;-1.334465444087982E-001;
2.835550000000000E+009;6.441026926040649E-001;-1.503140181303024E-001;
2.850500000000000E+009;6.592488288879395E-001;-1.705286800861359E-001;
2.865450000000000E+009;6.443805694580078E-001;-1.707401275634766E-001;
2.880400000000000E+009;6.310895085334778E-001;-1.926676779985428E-001;
2.895350000000000E+009;6.224088668823242E-001;-2.229252755641937E-001;
2.910300000000000E+009;6.170346736907959E-001;-2.618940472602844E-001;
2.925250000000000E+009;6.278089880943298E-001;-3.089196681976318E-001;
2.940200000000000E+009;6.465544700622559E-001;-3.229870498180389E-001;
2.955150000000000E+009;6.360771059989929E-001;-3.375089168548584E-001;
2.970100000000000E+009;6.241970062255859E-001;-3.567228019237518E-001;
2.985050000000000E+009;6.058216094970703E-001;-3.781132102012634E-001;
3.000000000000000E+009;5.801984071731567E-001;-4.126107692718506E-001;
