# Version 1.00
#
freq[Hz];re:Trc1_S11[U];im:Trc1_S11[U];
1.000000000000000E+007;1.013762593269348E+000;-5.550557374954224E-002;
2.495000000000000E+007;9.967775940895081E-001;-1.313721984624863E-001;
3.990000000000000E+007;9.606915712356567E-001;-1.751938164234161E-001;
5.485000000000000E+007;9.449368715286255E-001;-2.609421014785767E-001;
6.980000000000000E+007;9.408408999443054E-001;-3.180742263793945E-001;
8.475000000000000E+007;8.707267045974731E-001;-3.878606259822846E-001;
9.970000000000000E+007;8.554536104202271E-001;-4.394016563892365E-001;
1.146500000000000E+008;8.502491712570190E-001;-4.599468708038330E-001;
1.296000000000000E+008;8.004416823387146E-001;-5.171066522598267E-001;
1.445500000000000E+008;7.650208473205566E-001;-6.034811735153198E-001;
1.595000000000000E+008;6.548392772674561E-001;-6.620312929153442E-001;
1.744500000000000E+008;5.994729399681091E-001;-6.333468556404114E-001;
1.894000000000000E+008;6.167021989822388E-001;-7.143743038177490E-001;
2.043500000000000E+008;5.179414749145508E-001;-7.899770736694336E-001;
2.193000000000000E+008;4.212973713874817E-001;-8.222996592521668E-001;
2.342500000000000E+008;3.076618313789368E-001;-8.144449591636658E-001;
2.492000000000000E+008;2.593240141868591E-001;-8.196747899055481E-001;
2.641500000000000E+008;1.377749294042587E-001;-8.474783897399902E-001;
2.791000000000000E+008;6.761581636965275E-003;-8.050258159637451E-001;
2.940500000000000E+008;-6.943979114294052E-002;-7.275117635726929E-001;
3.090000000000000E+008;-1.867610365152359E-001;-6.691893935203552E-001;
3.239500000000000E+008;-2.936051785945892E-001;-5.269452929496765E-001;
3.389000000000000E+008;-3.267137110233307E-001;-3.712433874607086E-001;
3.538500000000000E+008;-3.212575614452362E-001;-1.706568002700806E-001;
3.688000000000000E+008;-1.754231601953507E-001;-1.181691884994507E-002;
3.837500000000000E+008;-1.130621228367090E-002;2.717940695583820E-002;
3.987000000000000E+008;1.127972602844238E-001;2.963594719767571E-002;
4.136500000000000E+008;2.106867730617523E-001;4.380967840552330E-002;
4.286000000000000E+008;3.414491415023804E-001;-2.926733531057835E-002;
4.435500000000000E+008;4.083639085292816E-001;-1.455141603946686E-001;
4.585000000000000E+008;4.183818101882935E-001;-2.492414116859436E-001;
4.734500000000000E+008;4.218624234199524E-001;-3.042170405387878E-001;
4.884000000000000E+008;4.225498735904694E-001;-3.737885653972626E-001;
5.033500000000000E+008;4.096268713474274E-001;-4.282262027263641E-001;
5.183000000000000E+008;3.771259784698486E-001;-4.904750585556030E-001;
5.332500000000000E+008;3.441839516162872E-001;-5.527725815773010E-001;
5.482000000000000E+008;2.889216840267181E-001;-5.695827603340149E-001;
5.631500000000000E+008;2.624869644641876E-001;-6.006072163581848E-001;
5.781000000000000E+008;2.295443862676621E-001;-6.294617056846619E-001;
5.930500000000000E+008;1.780091673135757E-001;-6.484916210174561E-001;
6.080000000000000E+008;1.294370442628861E-001;-6.641035676002502E-001;
6.229500000000000E+008;7.377489656209946E-002;-6.831121444702148E-001;
6.379000000000000E+008;1.985289342701435E-002;-6.861848235130310E-001;
6.528500000000000E+008;-8.287048898637295E-003;-6.933587193489075E-001;
6.678000000000000E+008;-5.825497955083847E-002;-6.876444220542908E-001;
6.827500000000000E+008;-1.026439741253853E-001;-6.720460057258606E-001;
6.977000000000000E+008;-1.271574050188065E-001;-6.586000323295593E-001;
7.126500000000000E+008;-1.770659387111664E-001;-6.578502655029297E-001;
7.276000000000000E+008;-2.168766111135483E-001;-6.438741683959961E-001;
7.425500000000000E+008;-2.439872175455093E-001;-6.263548135757446E-001;
7.575000000000000E+008;-2.748579680919647E-001;-6.216142177581787E-001;
7.724500000000000E+008;-3.101066052913666E-001;-5.940835475921631E-001;
7.874000000000000E+008;-3.484155535697937E-001;-5.598466992378235E-001;
8.023500000000000E+008;-3.811070919036865E-001;-5.344577431678772E-001;
8.173000000000000E+008;-4.051627516746521E-001;-4.936946630477905E-001;
8.322500000000000E+008;-4.262214899063110E-001;-4.743416607379913E-001;
8.472000000000000E+008;-4.445616006851196E-001;-4.582825303077698E-001;
8.621500000000000E+008;-4.846131503582001E-001;-4.193693101406097E-001;
8.771000000000000E+008;-4.990952908992767E-001;-3.816692829132080E-001;
8.920500000000000E+008;-5.156190395355225E-001;-3.511673510074616E-001;
9.070000000000000E+008;-5.353732705116272E-001;-3.232455849647522E-001;
9.219500000000000E+008;-5.487058758735657E-001;-2.923799455165863E-001;
9.369000000000000E+008;-5.602351427078247E-001;-2.428999841213226E-001;
9.518500000000000E+008;-5.615190267562866E-001;-1.921755969524384E-001;
9.668000000000000E+008;-5.430949926376343E-001;-1.212864294648171E-001;
9.817500000000000E+008;-5.410550832748413E-001;-7.659417390823364E-002;
9.967000000000000E+008;-5.278297066688538E-001;-1.975568570196629E-002;
1.011650000000000E+009;-4.959100186824799E-001;2.343908697366715E-002;
1.026600000000000E+009;-4.643333256244659E-001;6.191809102892876E-002;
1.041550000000000E+009;-4.183670878410339E-001;1.087958663702011E-001;
1.056500000000000E+009;-3.632509112358093E-001;1.640937924385071E-001;
1.071450000000000E+009;-3.055830001831055E-001;1.889711022377014E-001;
1.086400000000000E+009;-2.368752360343933E-001;1.948092132806778E-001;
1.101350000000000E+009;-1.880735754966736E-001;1.767234355211258E-001;
1.116300000000000E+009;-1.330291628837585E-001;1.636327207088471E-001;
1.131250000000000E+009;-4.966630041599274E-002;1.301118731498718E-001;
1.146200000000000E+009;-8.027576841413975E-004;7.380460947751999E-002;
1.161150000000000E+009;3.799374029040337E-002;1.899380981922150E-002;
1.176100000000000E+009;7.131168991327286E-002;-5.977543443441391E-002;
1.191050000000000E+009;7.152592390775681E-002;-1.614818274974823E-001;
1.206000000000000E+009;5.295307189226151E-002;-2.440720647573471E-001;
1.220950000000000E+009;1.276638451963663E-002;-3.169827461242676E-001;
1.235900000000000E+009;-4.362425953149796E-002;-3.533522784709930E-001;
1.250850000000000E+009;-1.167477220296860E-001;-3.705951571464539E-001;
1.265800000000000E+009;-2.006106823682785E-001;-3.872557878494263E-001;
1.280750000000000E+009;-2.809093594551086E-001;-3.897863924503326E-001;
1.295700000000000E+009;-3.502261638641357E-001;-3.847623169422150E-001;
1.310650000000000E+009;-4.020742177963257E-001;-3.588428795337677E-001;
1.325600000000000E+009;-4.386331140995026E-001;-3.002577722072601E-001;
1.340550000000000E+009;-4.802508950233460E-001;-2.446803003549576E-001;
1.355500000000000E+009;-5.159803628921509E-001;-1.901463717222214E-001;
1.370450000000000E+009;-5.436381101608276E-001;-1.390758752822876E-001;
1.385400000000000E+009;-5.538884997367859E-001;-1.202461570501328E-001;
1.400350000000000E+009;-5.464068055152893E-001;-8.861172199249268E-002;
1.415300000000000E+009;-5.261027812957764E-001;-4.242800176143646E-002;
1.430250000000000E+009;-5.010284185409546E-001;-7.549198344349861E-003;
1.445200000000000E+009;-4.908680021762848E-001;3.199113160371780E-002;
1.460150000000000E+009;-4.834210574626923E-001;4.654323309659958E-002;
1.475100000000000E+009;-4.654688239097595E-001;6.373281031847000E-002;
1.490050000000000E+009;-4.304654598236084E-001;8.480717986822128E-002;
1.505000000000000E+009;-3.999446630477905E-001;9.646907448768616E-002;
1.519950000000000E+009;-3.691706061363220E-001;1.273425966501236E-001;
1.534900000000000E+009;-3.798756897449493E-001;1.334585845470429E-001;
1.549850000000000E+009;-3.937444686889648E-001;1.335203349590302E-001;
1.564800000000000E+009;-4.003947377204895E-001;1.285193711519241E-001;
1.579750000000000E+009;-3.881272077560425E-001;1.117185875773430E-001;
1.594700000000000E+009;-3.667261302471161E-001;1.192527487874031E-001;
1.609650000000000E+009;-3.600179553031921E-001;1.376191675662994E-001;
1.624600000000000E+009;-3.740864396095276E-001;1.494625955820084E-001;
1.639550000000000E+009;-4.067525863647461E-001;1.671251803636551E-001;
1.654500000000000E+009;-4.297445714473724E-001;1.638697683811188E-001;
1.669450000000000E+009;-4.272552132606506E-001;1.626019775867462E-001;
1.684400000000000E+009;-4.045884907245636E-001;1.840873062610626E-001;
1.699350000000000E+009;-3.676501512527466E-001;1.984490752220154E-001;
1.714300000000000E+009;-3.551678657531738E-001;2.389418929815292E-001;
1.729250000000000E+009;-3.502526879310608E-001;2.774032056331635E-001;
1.744200000000000E+009;-3.400396406650543E-001;2.855357229709625E-001;
1.759150000000000E+009;-3.173570036888123E-001;2.941628396511078E-001;
1.774100000000000E+009;-2.888437807559967E-001;2.780646085739136E-001;
1.789050000000000E+009;-2.493693828582764E-001;2.921187579631805E-001;
1.804000000000000E+009;-2.395050674676895E-001;3.051915764808655E-001;
1.818950000000000E+009;-2.394628971815109E-001;2.980550229549408E-001;
1.833900000000000E+009;-2.497252672910690E-001;2.809648513793945E-001;
1.848850000000000E+009;-2.601567804813385E-001;2.467408031225205E-001;
1.863800000000000E+009;-2.394711822271347E-001;2.175722271203995E-001;
1.878750000000000E+009;-2.333385348320007E-001;2.169204801321030E-001;
1.893700000000000E+009;-2.355500161647797E-001;2.303274571895599E-001;
1.908650000000000E+009;-2.529814839363098E-001;2.379774451255798E-001;
1.923600000000000E+009;-3.018500804901123E-001;2.456407248973846E-001;
1.938550000000000E+009;-3.313209414482117E-001;2.248204946517944E-001;
1.953500000000000E+009;-3.470196127891541E-001;2.244086861610413E-001;
1.968450000000000E+009;-3.328068256378174E-001;2.352292239665985E-001;
1.983400000000000E+009;-3.184490799903870E-001;2.720479965209961E-001;
1.998350000000000E+009;-3.214002549648285E-001;3.345423638820648E-001;
2.013300000000000E+009;-3.519366681575775E-001;3.709798753261566E-001;
2.028250000000000E+009;-3.776256442070007E-001;4.143439829349518E-001;
2.043200000000000E+009;-3.944574296474457E-001;4.396774172782898E-001;
2.058150000000000E+009;-3.686375617980957E-001;4.730673432350159E-001;
2.073100000000000E+009;-3.236643671989441E-001;5.098112821578980E-001;
2.088050000000000E+009;-3.112880289554596E-001;5.620297789573669E-001;
2.103000000000000E+009;-2.858552932739258E-001;6.080794930458069E-001;
2.117950000000000E+009;-2.765904366970062E-001;6.449413299560547E-001;
2.132900000000000E+009;-2.347544431686401E-001;6.580559015274048E-001;
2.147850000000000E+009;-1.713843792676926E-001;6.608694791793823E-001;
2.162800000000000E+009;-1.121515035629273E-001;6.757488250732422E-001;
2.177750000000000E+009;-6.089194118976593E-002;6.857317090034485E-001;
2.192700000000000E+009;-3.277119621634483E-002;7.244033217430115E-001;
2.207650000000000E+009;-1.006545871496201E-002;7.266163229942322E-001;
2.222600000000000E+009;1.776987127959728E-002;7.065693736076355E-001;
2.237550000000000E+009;5.727620422840118E-002;6.667487621307373E-001;
2.252500000000000E+009;1.200701817870140E-001;6.278372406959534E-001;
2.267450000000000E+009;1.799804866313934E-001;6.278707385063171E-001;
2.282400000000000E+009;2.069020867347717E-001;6.505013108253479E-001;
2.297350000000000E+009;2.015925049781799E-001;6.839502453804016E-001;
2.312300000000000E+009;1.858392059803009E-001;6.814068555831909E-001;
2.327250000000000E+009;1.820436269044876E-001;6.353325247764587E-001;
2.342200000000000E+009;2.167965024709702E-001;5.910798311233521E-001;
2.357150000000000E+009;2.580676972866058E-001;5.554793477058411E-001;
2.372100000000000E+009;3.067645132541657E-001;5.538684129714966E-001;
2.387050000000000E+009;3.446586430072784E-001;5.828217864036560E-001;
2.402000000000000E+009;3.482202887535095E-001;6.047263741493225E-001;
2.416950000000000E+009;3.518809378147125E-001;5.909333825111389E-001;
2.431900000000000E+009;3.701781630516052E-001;5.694987773895264E-001;
2.446850000000000E+009;4.172236621379852E-001;5.270563960075378E-001;
2.461800000000000E+009;4.765625000000000E-001;5.162386894226074E-001;
2.476750000000000E+009;5.221330523490906E-001;5.394679903984070E-001;
2.491700000000000E+009;5.320518612861633E-001;5.367938876152039E-001;
2.506650000000000E+009;5.276734828948975E-001;5.285512208938599E-001;
2.521600000000000E+009;5.275521278381348E-001;4.588719308376312E-001;
2.536550000000000E+009;5.640110373497009E-001;3.922367691993713E-001;
2.551500000000000E+009;6.276646256446838E-001;3.610478341579437E-001;
2.566450000000000E+009;6.705983877182007E-001;3.419965505599976E-001;
2.581400000000000E+009;6.988101005554199E-001;3.662675619125366E-001;
2.596350000000000E+009;6.505989432334900E-001;3.505545258522034E-001;
2.611300000000000E+009;6.152349114418030E-001;2.982245683670044E-001;
2.626250000000000E+009;6.063451170921326E-001;2.212816774845123E-001;
2.641200000000000E+009;6.258385777473450E-001;1.615367829799652E-001;
2.656150000000000E+009;6.876383423805237E-001;1.303294599056244E-001;
2.671100000000000E+009;6.983410120010376E-001;1.310513168573380E-001;
2.686050000000000E+009;7.165941596031189E-001;1.416709423065186E-001;
2.701000000000000E+009;6.760882735252380E-001;1.392259746789932E-001;
2.715950000000000E+009;6.528877615928650E-001;1.003818511962891E-001;
2.730900000000000E+009;6.532109975814819E-001;4.199118539690971E-002;
2.745850000000000E+009;6.568707227706909E-001;2.292208001017571E-002;
2.760800000000000E+009;6.863207817077637E-001;1.062130648642778E-002;
2.775750000000000E+009;6.928399801254273E-001;1.898010261356831E-002;
2.790700000000000E+009;6.690170764923096E-001;-6.939674727618694E-003;
2.805650000000000E+009;6.474798321723938E-001;-3.914192691445351E-002;
2.820600000000000E+009;6.579041481018066E-001;-7.423912733793259E-002;
2.835550000000000E+009;6.740542054176331E-001;-9.604907780885696E-002;
2.850500000000000E+009;7.013823390007019E-001;-1.053768023848534E-001;
2.865450000000000E+009;6.870744824409485E-001;-1.155821904540062E-001;
2.880400000000000E+009;6.668876409530640E-001;-1.275305300951004E-001;
2.895350000000000E+009;6.573247313499451E-001;-1.690538972616196E-001;
2.910300000000000E+009;6.529400944709778E-001;-2.078369408845902E-001;
2.925250000000000E+009;6.857878565788269E-001;-2.670360505580902E-001;
2.940200000000000E+009;7.013893723487854E-001;-2.893843650817871E-001;
2.955150000000000E+009;7.014870643615723E-001;-3.023338913917542E-001;
2.970100000000000E+009;6.857936978340149E-001;-3.250526487827301E-001;
2.985050000000000E+009;6.639115214347839E-001;-3.355511128902435E-001;
3.000000000000000E+009;6.478216052055359E-001;-3.845735788345337E-001;
